# HZ S RI R 50
2000000000 -0.6271873712539673 -0.6472406983375549 -7.223058491945267e-05 1.3566575944423676e-05 0 0 0 0
2001500000 -0.6288409233093262 -0.6457847952842712 1.0547228157520294e-05 -5.346536636352539e-05 0 0 0 0
2003000000 -0.6330874562263489 -0.6416776776313782 -2.7346424758434296e-05 -2.6337802410125732e-06 0 0 0 0
2004500000 -0.633778989315033 -0.641147792339325 1.9613653421401978e-06 -7.166434079408646e-05 0 0 0 0
2006000000 -0.635660707950592 -0.6382578015327454 7.641501724720001e-06 -2.3020431399345398e-05 0 0 0 0
2007500000 -0.6372848153114319 -0.6369035840034485 -4.55416738986969e-06 -1.0709278285503387e-05 0 0 0 0
2009000000 -0.6393682360649109 -0.6357393860816956 2.894364297389984e-05 -5.6442804634571075e-05 0 0 0 0
2010500000 -0.6422207951545715 -0.6307405829429626 -1.1282972991466522e-05 -2.8479844331741333e-05 0 0 0 0
2012000000 -0.6442148685455322 -0.6289589405059814 -5.5392272770404816e-05 -2.212822437286377e-05 0 0 0 0
2013500000 -0.6445615887641907 -0.6281297206878662 -4.032067954540253e-05 -5.560554563999176e-05 0 0 0 0
2015000000 -0.6465655565261841 -0.6266051530838013 -2.3446977138519287e-05 -3.957375884056091e-05 0 0 0 0
2016500000 -0.6493331789970398 -0.6218504309654236 -3.0904076993465424e-05 -1.469440758228302e-05 0 0 0 0
2018000000 -0.6515047550201416 -0.619676411151886 -2.134311944246292e-05 -4.958920180797577e-05 0 0 0 0
2019500000 -0.6533761620521545 -0.6166602969169617 -2.5977380573749542e-05 -2.6633962988853455e-05 0 0 0 0
2021000000 -0.6554853916168213 -0.6151098012924194 1.5616416931152344e-05 5.638226866722107e-06 0 0 0 0
2022500000 -0.6596025824546814 -0.6119468808174133 -3.093760460615158e-05 -3.643892705440521e-05 0 0 0 0
2024000000 -0.6584974527359009 -0.6103329658508301 -5.5680982768535614e-05 -7.85626471042633e-05 0 0 0 0
2025500000 -0.6626501083374023 -0.6092475056648254 -6.106682121753693e-05 -7.580965757369995e-06 0 0 0 0
2027000000 -0.6623950004577637 -0.6071232557296753 5.848705768585205e-06 3.308150917291641e-05 0 0 0 0
2028500000 -0.6657967567443848 -0.6034811735153198 4.3082982301712036e-05 -1.3606622815132141e-06 0 0 0 0
2030000000 -0.6679470539093018 -0.6012250185012817 -2.325046807527542e-05 1.2347474694252014e-05 0 0 0 0
2031500000 -0.669884979724884 -0.598608136177063 -5.2587129175662994e-05 1.1050142347812653e-05 0 0 0 0
2033000000 -0.6717191934585571 -0.5956100225448608 -3.860611468553543e-05 -1.95307657122612e-05 0 0 0 0
2034500000 -0.6721310615539551 -0.5947754979133606 -8.39773565530777e-06 6.559304893016815e-06 0 0 0 0
2036000000 -0.6750956773757935 -0.5903440713882446 -1.7712824046611786e-05 -2.15042382478714e-05 0 0 0 0
2037500000 -0.6785022616386414 -0.5873873233795166 -4.737917333841324e-05 8.016824722290039e-06 0 0 0 0
2039000000 -0.6777470707893372 -0.587436854839325 -3.359932452440262e-05 2.7725473046302795e-05 0 0 0 0
2040500000 -0.6817076206207275 -0.5830028057098389 -3.0065886676311493e-05 -2.8384849429130554e-05 0 0 0 0
2042000000 -0.681684672832489 -0.5822483897209167 -3.6220066249370575e-05 -1.9040890038013458e-05 0 0 0 0
2043500000 -0.6856411695480347 -0.5780421495437622 -7.629022002220154e-05 -1.486949622631073e-05 0 0 0 0
2045000000 -0.6861294507980347 -0.5766236186027527 -2.000853419303894e-05 3.6638230085372925e-06 0 0 0 0
2046500000 -0.6883559226989746 -0.5738540291786194 -1.2672506272792816e-05 -1.9140541553497314e-05 0 0 0 0
2048000000 -0.6909984350204468 -0.5692521333694458 1.7904676496982574e-05 -9.546056389808655e-06 0 0 0 0
2049500000 -0.690971851348877 -0.5703441500663757 -4.296749830245972e-05 8.056871592998505e-06 0 0 0 0
2051000000 -0.6948179006576538 -0.5650078654289246 -2.7567148208618164e-06 -1.933518797159195e-05 0 0 0 0
2052500000 -0.6965566277503967 -0.5619885325431824 5.320645868778229e-06 -3.8387253880500793e-05 0 0 0 0
2054000000 -0.6981372833251953 -0.5604590773582458 -2.894364297389984e-05 -1.5633180737495422e-05 0 0 0 0
2055500000 -0.6997880935668945 -0.5589340925216675 2.7480535209178925e-05 -1.9203871488571167e-06 0 0 0 0
2057000000 -0.7009652853012085 -0.5568219423294067 5.763024091720581e-06 4.59328293800354e-06 0 0 0 0
2058500000 -0.7021457552909851 -0.5538307428359985 4.402361810207367e-06 -2.7880072593688965e-05 0 0 0 0
2060000000 -0.7041144967079163 -0.5502814054489136 5.857087671756744e-06 -1.9531697034835815e-05 0 0 0 0
2061500000 -0.7060639262199402 -0.5462548732757568 -1.4463439583778381e-05 7.129274308681488e-06 0 0 0 0
2063000000 -0.709097683429718 -0.5441173911094666 -1.3474375009536743e-05 -5.74188306927681e-05 0 0 0 0
2064500000 -0.7102568745613098 -0.541134238243103 -3.907736390829086e-05 -3.980286419391632e-05 0 0 0 0
2066000000 -0.7124490141868591 -0.538389265537262 -2.0118430256843567e-05 -6.761401891708374e-07 0 0 0 0
2067500000 -0.713268518447876 -0.5367410182952881 1.3737007975578308e-05 9.883195161819458e-06 0 0 0 0
2069000000 -0.7155733108520508 -0.5326828360557556 1.2631528079509735e-05 -4.5416876673698425e-05 0 0 0 0
2070500000 -0.7181734442710876 -0.5312105417251587 -1.4157965779304504e-05 -1.4318153262138367e-05 0 0 0 0
2072000000 -0.7198793292045593 -0.5259537696838379 -6.161630153656006e-06 -3.940612077713013e-05 0 0 0 0
2073500000 -0.7204646468162537 -0.5245958566665649 -2.8751790523529053e-05 -5.07943332195282e-06 0 0 0 0
2075000000 -0.7225170731544495 -0.522258460521698 -5.567166954278946e-05 -2.0645558834075928e-05 0 0 0 0
2076500000 -0.7246730327606201 -0.5189152956008911 -2.4029985070228577e-05 -3.97777184844017e-05 0 0 0 0
2078000000 -0.7259900569915771 -0.5173680782318115 -1.6811303794384003e-05 -4.257727414369583e-05 0 0 0 0
2079500000 -0.7283515334129333 -0.5129565596580505 -3.034062683582306e-05 -1.202896237373352e-05 0 0 0 0
2081000000 -0.7289595603942871 -0.5120888948440552 -2.1884217858314514e-05 -3.972090780735016e-06 0 0 0 0
2082500000 -0.7309120297431946 -0.5087321400642395 -4.499778151512146e-05 -2.4133361876010895e-05 0 0 0 0
2084000000 -0.7330220937728882 -0.50400310754776 -5.221925675868988e-06 -4.638358950614929e-05 0 0 0 0
2085500000 -0.733558714389801 -0.5037247538566589 1.3202428817749023e-05 -7.0426613092422485e-06 0 0 0 0
2087000000 -0.735920786857605 -0.5007449388504028 -1.2438744306564331e-05 4.2875297367572784e-05 0 0 0 0
2088500000 -0.7374268174171448 -0.49716076254844666 3.970973193645477e-05 2.4662353098392487e-05 0 0 0 0
2090000000 -0.7392624020576477 -0.49443262815475464 -1.6021542251110077e-05 -2.3336149752140045e-05 0 0 0 0
2091500000 -0.7400866746902466 -0.49364548921585083 -4.687998443841934e-05 -2.376735210418701e-06 0 0 0 0
2093000000 -0.7419673204421997 -0.48836180567741394 1.0507181286811829e-05 -2.523418515920639e-05 0 0 0 0
2094500000 -0.7450516223907471 -0.4843519330024719 -1.6459263861179352e-05 -3.501772880554199e-05 0 0 0 0
2096000000 -0.7443332076072693 -0.4848085045814514 -1.698080450296402e-05 -4.322454333305359e-05 0 0 0 0
2097500000 -0.747382402420044 -0.4790133535861969 3.081373870372772e-05 -4.193093627691269e-05 0 0 0 0
2099000000 -0.7489756345748901 -0.4762776792049408 -4.445575177669525e-05 -3.427732735872269e-05 0 0 0 0
2100500000 -0.7497596144676208 -0.4748455584049225 -2.9214657843112946e-05 -1.7418526113033295e-05 0 0 0 0
2102000000 -0.7518353462219238 -0.4711247682571411 -2.7875415980815887e-05 9.592622518539429e-06 0 0 0 0
2103500000 -0.7525579929351807 -0.46889448165893555 -9.611248970031738e-06 -2.3533590137958527e-05 0 0 0 0
2105000000 -0.754413902759552 -0.4655218720436096 -7.630698382854462e-05 -1.2152828276157379e-05 0 0 0 0
2106500000 -0.7567037343978882 -0.46230608224868774 6.488524377346039e-06 4.474073648452759e-06 0 0 0 0
2108000000 -0.7570415735244751 -0.4606333076953888 3.3144839107990265e-05 -6.0371123254299164e-05 0 0 0 0
2109500000 -0.7580119967460632 -0.4576488733291626 -9.383074939250946e-06 -3.5147182643413544e-05 0 0 0 0
2111000000 -0.7605428695678711 -0.45519647002220154 2.111028879880905e-05 1.181475818157196e-05 0 0 0 0
2112500000 -0.7614406943321228 -0.4504432678222656 1.3542361557483673e-05 9.375624358654022e-06 0 0 0 0
2114000000 -0.7630918025970459 -0.4477015435695648 -5.885027348995209e-06 1.1278316378593445e-06 0 0 0 0
2115500000 -0.7648343443870544 -0.44609344005584717 2.0228326320648193e-05 -3.5492703318595886e-05 0 0 0 0
2117000000 -0.7660884261131287 -0.44233450293540955 -8.526258170604706e-06 1.8524006009101868e-06 0 0 0 0
2118500000 -0.7683666944503784 -0.4383890628814697 2.0349398255348206e-06 2.725888043642044e-05 0 0 0 0
2120000000 -0.7697207927703857 -0.4352557361125946 1.7170794308185577e-05 2.730824053287506e-05 0 0 0 0
2121500000 -0.7705572843551636 -0.43181222677230835 -3.072340041399002e-05 -4.022568464279175e-05 0 0 0 0
2123000000 -0.7722092866897583 -0.42862945795059204 -1.0214745998382568e-05 -2.005603164434433e-05 0 0 0 0
2124500000 -0.7731502056121826 -0.4279572367668152 -5.6945718824863434e-05 -3.027264028787613e-05 0 0 0 0
2126000000 -0.7747700214385986 -0.423956036567688 -5.338340997695923e-06 -5.089119076728821e-05 0 0 0 0
2127500000 -0.7748376727104187 -0.4219292998313904 3.0008144676685333e-05 -1.5149824321269989e-05 0 0 0 0
2129000000 -0.776922881603241 -0.4179638624191284 -7.254071533679962e-06 -4.352349787950516e-05 0 0 0 0
2130500000 -0.7783232927322388 -0.4149082899093628 -2.661813050508499e-05 1.1082738637924194e-07 0 0 0 0
2132000000 -0.7793505191802979 -0.41243255138397217 -1.715589314699173e-05 2.8108246624469757e-05 0 0 0 0
2133500000 -0.7808146476745605 -0.4081214666366577 -3.363378345966339e-05 -3.5276636481285095e-05 0 0 0 0
2135000000 -0.7814066410064697 -0.4067111611366272 1.350603997707367e-05 -9.9940225481987e-06 0 0 0 0
2136500000 -0.7836623191833496 -0.4024916887283325 -1.0132789611816406e-05 -1.471489667892456e-05 0 0 0 0
2138000000 -0.7851104736328125 -0.3994561731815338 8.617527782917023e-06 -2.1159648895263672e-05 0 0 0 0
2139500000 -0.7854928970336914 -0.3970084488391876 -5.50244003534317e-05 2.5809742510318756e-05 0 0 0 0
2141000000 -0.7873417139053345 -0.39206960797309875 -1.4057382941246033e-05 2.0378269255161285e-05 0 0 0 0
2142500000 -0.7878057360649109 -0.39128145575523376 -5.705282092094421e-06 -3.082677721977234e-07 0 0 0 0
2144000000 -0.7896265387535095 -0.3862055242061615 2.3798085749149323e-05 -1.8473714590072632e-05 0 0 0 0
2145500000 -0.7898725271224976 -0.3851819634437561 -2.8899870812892914e-05 2.477876842021942e-05 0 0 0 0
2147000000 -0.7921169996261597 -0.38169434666633606 5.642883479595184e-06 9.490177035331726e-07 0 0 0 0
2148500000 -0.7935826182365417 -0.3779109716415405 1.1460855603218079e-05 -1.1360272765159607e-05 0 0 0 0
2150000000 -0.7939460873603821 -0.37660467624664307 -1.5725381672382355e-05 -1.735985279083252e-05 0 0 0 0
2151500000 -0.7951210141181946 -0.3726763129234314 -8.553359657526016e-05 2.1823681890964508e-05 0 0 0 0
2153000000 -0.7969110608100891 -0.3693324327468872 3.5628676414489746e-05 -3.66847962141037e-06 0 0 0 0
2154500000 -0.7978153824806213 -0.36375734210014343 -2.502836287021637e-05 -4.5064836740493774e-05 0 0 0 0
2156000000 -0.7992604970932007 -0.3622942268848419 -3.318861126899719e-05 -1.4528632164001465e-07 0 0 0 0
2157500000 -0.7990986704826355 -0.3600003123283386 -6.224680691957474e-05 -4.783272743225098e-06 0 0 0 0
2159000000 -0.8000550270080566 -0.3587333559989929 -4.380475729703903e-05 -3.4955330193042755e-05 0 0 0 0
2160500000 -0.8017438054084778 -0.3536664843559265 -3.175158053636551e-05 2.716854214668274e-05 0 0 0 0
2162000000 -0.8025444746017456 -0.3510798215866089 -1.0629184544086456e-05 -4.340987652540207e-05 0 0 0 0
2163500000 -0.8032367825508118 -0.34657880663871765 -2.8506852686405182e-05 3.6189332604408264e-05 0 0 0 0
2165000000 -0.8042507767677307 -0.3440539836883545 -8.653849363327026e-06 -8.471310138702393e-06 0 0 0 0
2166500000 -0.8059426546096802 -0.3395348787307739 -3.339443355798721e-05 -1.4407560229301453e-06 0 0 0 0
2168000000 -0.8054860830307007 -0.3385758697986603 1.707952469587326e-05 -9.08970832824707e-06 0 0 0 0
2169500000 -0.8063387870788574 -0.33576610684394836 -5.505513399839401e-05 7.645227015018463e-06 0 0 0 0
2171000000 -0.80857914686203 -0.33026963472366333 -2.5054439902305603e-05 -3.157462924718857e-05 0 0 0 0
2172500000 -0.809377908706665 -0.32849588990211487 8.042901754379272e-06 -7.506459951400757e-05 0 0 0 0
2174000000 -0.8098919987678528 -0.3244767487049103 -4.021916538476944e-05 -2.0895153284072876e-05 0 0 0 0
2175500000 -0.8106456995010376 -0.3224935829639435 1.7395243048667908e-05 6.416812539100647e-06 0 0 0 0
2177000000 -0.811603844165802 -0.3177322447299957 -1.5497207641601562e-06 -7.241033017635345e-05 0 0 0 0
2178500000 -0.8124932646751404 -0.31508252024650574 -6.632320582866669e-05 -7.668323814868927e-05 0 0 0 0
2180000000 -0.8132132291793823 -0.3127962052822113 -3.335531800985336e-05 -4.476308822631836e-05 0 0 0 0
2181500000 -0.8142150044441223 -0.3090376853942871 -5.9672631323337555e-05 -8.492358028888702e-05 0 0 0 0
2183000000 -0.8153132796287537 -0.3055494427680969 -3.51564958691597e-05 6.901100277900696e-06 0 0 0 0
2184500000 -0.8159756660461426 -0.30314794182777405 1.105479896068573e-06 -3.248080611228943e-05 0 0 0 0
2186000000 -0.8171837329864502 -0.29915621876716614 -3.233645111322403e-05 1.49579718708992e-05 0 0 0 0
2187500000 -0.8183180093765259 -0.29559963941574097 -2.008862793445587e-05 -2.4582259356975555e-05 0 0 0 0
2189000000 -0.8191328644752502 -0.2922362983226776 -4.8318877816200256e-05 -7.941387593746185e-06 0 0 0 0
2190500000 -0.8189699053764343 -0.2899281680583954 -6.472691893577576e-06 -3.461260348558426e-05 0 0 0 0
2192000000 -0.8198925256729126 -0.2871653139591217 -5.078501999378204e-06 -2.0301900804042816e-05 0 0 0 0
2193500000 -0.8217662572860718 -0.2820424437522888 2.694781869649887e-05 -1.9140541553497314e-05 0 0 0 0
2195000000 -0.8217042088508606 -0.28078681230545044 -5.172472447156906e-05 1.5455298125743866e-05 0 0 0 0
2196500000 -0.8226279020309448 -0.2762482166290283 -5.476176738739014e-06 2.1375715732574463e-05 0 0 0 0
2198000000 -0.8236649632453918 -0.2733456790447235 -1.4503486454486847e-05 -6.682053208351135e-05 0 0 0 0
2199500000 -0.8239244818687439 -0.2709781527519226 -5.598179996013641e-06 -5.601905286312103e-05 0 0 0 0
2201000000 -0.8236978650093079 -0.2686644196510315 -7.665995508432388e-05 -4.2883679270744324e-05 0 0 0 0
2202500000 -0.8258575797080994 -0.26298660039901733 -4.553701728582382e-05 2.9855407774448395e-05 0 0 0 0
2204000000 -0.825750470161438 -0.2605092227458954 -1.9430182874202728e-05 -3.10409814119339e-05 0 0 0 0
2205500000 -0.8261297941207886 -0.2582598626613617 8.470378816127777e-06 1.1310912668704987e-05 0 0 0 0
2207000000 -0.8270527720451355 -0.25413039326667786 -4.5564956963062286e-05 -8.293427526950836e-06 0 0 0 0
2208500000 -0.8282461762428284 -0.25189006328582764 3.984197974205017e-06 -1.5919096767902374e-05 0 0 0 0
2210000000 -0.8283388614654541 -0.24805547297000885 -3.4718774259090424e-05 2.721790224313736e-05 0 0 0 0
2211500000 -0.8289424180984497 -0.2445840835571289 -3.8878992199897766e-05 -2.382136881351471e-05 0 0 0 0
2213000000 -0.8294119834899902 -0.24325942993164062 -3.824755549430847e-05 -1.026596873998642e-05 0 0 0 0
2214500000 -0.8302531242370605 -0.23885945975780487 1.715775579214096e-05 -3.732461482286453e-05 0 0 0 0
2216000000 -0.8307891488075256 -0.23656900227069855 -8.086953312158585e-05 9.763985872268677e-06 0 0 0 0
2217500000 -0.8313637971878052 -0.2325541377067566 -5.151145160198212e-05 -2.9389746487140656e-05 0 0 0 0
2219000000 -0.8323031663894653 -0.2290169596672058 -4.558544605970383e-05 4.200544208288193e-05 0 0 0 0
2220500000 -0.8314684629440308 -0.2282419353723526 3.133900463581085e-06 -6.183795630931854e-05 0 0 0 0
2222000000 -0.8328186869621277 -0.22116044163703918 -8.276663720607758e-06 -1.1821277439594269e-05 0 0 0 0
2223500000 -0.8333336114883423 -0.22005929052829742 -2.440810203552246e-05 -3.346148878335953e-05 0 0 0 0
2225000000 -0.8338325023651123 -0.21703852713108063 -3.5353004932403564e-05 -9.791925549507141e-06 0 0 0 0
2226500000 -0.8340060114860535 -0.21427834033966064 -1.1604279279708862e-06 -6.455183029174805e-05 0 0 0 0
2228000000 -0.8342325091362 -0.21070140600204468 -1.8938444554805756e-05 -7.033813744783401e-05 0 0 0 0
2229500000 -0.8352749347686768 -0.20757579803466797 -2.8917565941810608e-05 -5.089305341243744e-05 0 0 0 0
2231000000 -0.8352406620979309 -0.2042512148618698 -2.1190382540225983e-05 -4.149600863456726e-05 0 0 0 0
2232500000 -0.8358969688415527 -0.20140381157398224 -3.0485913157463074e-05 6.584450602531433e-07 0 0 0 0
2234000000 -0.8359229564666748 -0.19893501698970795 -2.0420178771018982e-05 4.832632839679718e-06 0 0 0 0
2235500000 -0.8368543386459351 -0.19456598162651062 -6.541050970554352e-05 2.627447247505188e-05 0 0 0 0
2237000000 -0.8370605707168579 -0.19056126475334167 -2.2205524146556854e-05 -2.0283274352550507e-05 0 0 0 0
2238500000 -0.837888240814209 -0.18756267428398132 -4.664156585931778e-05 -2.9165297746658325e-05 0 0 0 0
2240000000 -0.837883472442627 -0.18517138063907623 -1.2335367500782013e-05 -1.62515789270401e-05 0 0 0 0
2241500000 -0.8375236988067627 -0.18590117990970612 -9.041279554367065e-06 -2.6016496121883392e-05 0 0 0 0
2243000000 -0.8388714790344238 -0.1774458885192871 -2.10711732506752e-05 -2.33575701713562e-06 0 0 0 0
2244500000 -0.8388713598251343 -0.1773117482662201 -3.1074509024620056e-05 -6.462074816226959e-05 0 0 0 0
2246000000 -0.8399521708488464 -0.16930918395519257 -2.9988586902618408e-05 -4.733912646770477e-06 0 0 0 0
2247500000 -0.8386330604553223 -0.17347173392772675 -5.451589822769165e-05 -1.2689270079135895e-05 0 0 0 0
2249000000 -0.8399372696876526 -0.16588181257247925 -2.4662353098392487e-05 3.953464329242706e-06 0 0 0 0
2250500000 -0.8396337032318115 -0.1631646752357483 -3.130454570055008e-05 -1.2435019016265869e-05 0 0 0 0
2252000000 -0.8392449021339417 -0.16018331050872803 -4.210509359836578e-06 -5.169957876205444e-05 0 0 0 0
2253500000 -0.8405690789222717 -0.15745943784713745 -3.399699926376343e-05 -2.5490298867225647e-06 0 0 0 0
2255000000 -0.8403637409210205 -0.1540585309267044 -1.9310973584651947e-05 -5.3202733397483826e-05 0 0 0 0
2256500000 -0.8408163189888 -0.1500377506017685 -1.1556781828403473e-05 -6.544683128595352e-05 0 0 0 0
2258000000 -0.8408183455467224 -0.14804811775684357 -3.486126661300659e-05 -4.6275556087493896e-05 0 0 0 0
2259500000 -0.8415862917900085 -0.14399026334285736 -1.934915781021118e-05 -2.8966926038265228e-05 0 0 0 0
2261000000 -0.841679573059082 -0.14104047417640686 -1.7134472727775574e-05 -1.368299126625061e-05 0 0 0 0
2262500000 -0.8412222266197205 -0.13984240591526031 -3.6821700632572174e-05 2.1416693925857544e-05 0 0 0 0
2264000000 -0.8417893052101135 -0.13427390158176422 -5.3637661039829254e-05 1.436471939086914e-05 0 0 0 0
2265500000 -0.8419836163520813 -0.1313379555940628 -5.5126845836639404e-05 -5.407258868217468e-06 0 0 0 0
2267000000 -0.8419983386993408 -0.13001538813114166 -3.875605762004852e-05 -7.953494787216187e-06 0 0 0 0
2268500000 -0.8418752551078796 -0.12663696706295013 -5.257129669189453e-05 -1.5581026673316956e-05 0 0 0 0
2270000000 -0.8420439958572388 -0.12230338156223297 -7.514841854572296e-05 -1.9369646906852722e-05 0 0 0 0
2271500000 -0.8421359062194824 -0.11997480690479279 -1.9132159650325775e-05 3.3818185329437256e-05 0 0 0 0
2273000000 -0.8423532843589783 -0.11655927449464798 -5.448237061500549e-05 1.8421560525894165e-06 0 0 0 0
2274500000 -0.8424427509307861 -0.11392197012901306 -4.2652711272239685e-05 -4.945322871208191e-07 0 0 0 0
2276000000 -0.8427810072898865 -0.11051265895366669 3.3182092010974884e-05 1.7449259757995605e-05 0 0 0 0
2277500000 -0.8427278995513916 -0.10892058908939362 -2.4069100618362427e-05 -8.305534720420837e-06 0 0 0 0
2279000000 -0.8423420190811157 -0.10537843406200409 -5.260016769170761e-05 -2.031587064266205e-05 0 0 0 0
2280500000 -0.8428044319152832 -0.10189568996429443 -7.338635623455048e-05 -5.576387047767639e-05 0 0 0 0
2282000000 -0.842941164970398 -0.09864901006221771 -3.683008253574371e-05 4.754401743412018e-05 0 0 0 0
