# HZ S RI R 50
2000000000 -0.6271873712539673 -0.6472406983375549
2001500000 -0.6288409233093262 -0.6457847952842712
2003000000 -0.6330874562263489 -0.6416776776313782
2004500000 -0.633778989315033 -0.641147792339325
2006000000 -0.635660707950592 -0.6382578015327454
2007500000 -0.6372848153114319 -0.6369035840034485
2009000000 -0.6393682360649109 -0.6357393860816956
2010500000 -0.6422207951545715 -0.6307405829429626
2012000000 -0.6442148685455322 -0.6289589405059814
2013500000 -0.6445615887641907 -0.6281297206878662
2015000000 -0.6465655565261841 -0.6266051530838013
2016500000 -0.6493331789970398 -0.6218504309654236
2018000000 -0.6515047550201416 -0.619676411151886
2019500000 -0.6533761620521545 -0.6166602969169617
2021000000 -0.6554853916168213 -0.6151098012924194
2022500000 -0.6596025824546814 -0.6119468808174133
2024000000 -0.6584974527359009 -0.6103329658508301
2025500000 -0.6626501083374023 -0.6092475056648254
2027000000 -0.6623950004577637 -0.6071232557296753
2028500000 -0.6657967567443848 -0.6034811735153198
2030000000 -0.6679470539093018 -0.6012250185012817
2031500000 -0.669884979724884 -0.598608136177063
2033000000 -0.6717191934585571 -0.5956100225448608
2034500000 -0.6721310615539551 -0.5947754979133606
2036000000 -0.6750956773757935 -0.5903440713882446
2037500000 -0.6785022616386414 -0.5873873233795166
2039000000 -0.6777470707893372 -0.587436854839325
2040500000 -0.6817076206207275 -0.5830028057098389
2042000000 -0.681684672832489 -0.5822483897209167
2043500000 -0.6856411695480347 -0.5780421495437622
2045000000 -0.6861294507980347 -0.5766236186027527
2046500000 -0.6883559226989746 -0.5738540291786194
2048000000 -0.6909984350204468 -0.5692521333694458
2049500000 -0.690971851348877 -0.5703441500663757
2051000000 -0.6948179006576538 -0.5650078654289246
2052500000 -0.6965566277503967 -0.5619885325431824
2054000000 -0.6981372833251953 -0.5604590773582458
2055500000 -0.6997880935668945 -0.5589340925216675
2057000000 -0.7009652853012085 -0.5568219423294067
2058500000 -0.7021457552909851 -0.5538307428359985
2060000000 -0.7041144967079163 -0.5502814054489136
2061500000 -0.7060639262199402 -0.5462548732757568
2063000000 -0.709097683429718 -0.5441173911094666
2064500000 -0.7102568745613098 -0.541134238243103
2066000000 -0.7124490141868591 -0.538389265537262
2067500000 -0.713268518447876 -0.5367410182952881
2069000000 -0.7155733108520508 -0.5326828360557556
2070500000 -0.7181734442710876 -0.5312105417251587
2072000000 -0.7198793292045593 -0.5259537696838379
2073500000 -0.7204646468162537 -0.5245958566665649
2075000000 -0.7225170731544495 -0.522258460521698
2076500000 -0.7246730327606201 -0.5189152956008911
2078000000 -0.7259900569915771 -0.5173680782318115
2079500000 -0.7283515334129333 -0.5129565596580505
2081000000 -0.7289595603942871 -0.5120888948440552
2082500000 -0.7309120297431946 -0.5087321400642395
2084000000 -0.7330220937728882 -0.50400310754776
2085500000 -0.733558714389801 -0.5037247538566589
2087000000 -0.735920786857605 -0.5007449388504028
2088500000 -0.7374268174171448 -0.49716076254844666
2090000000 -0.7392624020576477 -0.49443262815475464
2091500000 -0.7400866746902466 -0.49364548921585083
2093000000 -0.7419673204421997 -0.48836180567741394
2094500000 -0.7450516223907471 -0.4843519330024719
2096000000 -0.7443332076072693 -0.4848085045814514
2097500000 -0.747382402420044 -0.4790133535861969
2099000000 -0.7489756345748901 -0.4762776792049408
2100500000 -0.7497596144676208 -0.4748455584049225
2102000000 -0.7518353462219238 -0.4711247682571411
2103500000 -0.7525579929351807 -0.46889448165893555
2105000000 -0.754413902759552 -0.4655218720436096
2106500000 -0.7567037343978882 -0.46230608224868774
2108000000 -0.7570415735244751 -0.4606333076953888
2109500000 -0.7580119967460632 -0.4576488733291626
2111000000 -0.7605428695678711 -0.45519647002220154
2112500000 -0.7614406943321228 -0.4504432678222656
2114000000 -0.7630918025970459 -0.4477015435695648
2115500000 -0.7648343443870544 -0.44609344005584717
2117000000 -0.7660884261131287 -0.44233450293540955
2118500000 -0.7683666944503784 -0.4383890628814697
2120000000 -0.7697207927703857 -0.4352557361125946
2121500000 -0.7705572843551636 -0.43181222677230835
2123000000 -0.7722092866897583 -0.42862945795059204
2124500000 -0.7731502056121826 -0.4279572367668152
2126000000 -0.7747700214385986 -0.423956036567688
2127500000 -0.7748376727104187 -0.4219292998313904
2129000000 -0.776922881603241 -0.4179638624191284
2130500000 -0.7783232927322388 -0.4149082899093628
2132000000 -0.7793505191802979 -0.41243255138397217
2133500000 -0.7808146476745605 -0.4081214666366577
2135000000 -0.7814066410064697 -0.4067111611366272
2136500000 -0.7836623191833496 -0.4024916887283325
2138000000 -0.7851104736328125 -0.3994561731815338
2139500000 -0.7854928970336914 -0.3970084488391876
2141000000 -0.7873417139053345 -0.39206960797309875
2142500000 -0.7878057360649109 -0.39128145575523376
2144000000 -0.7896265387535095 -0.3862055242061615
2145500000 -0.7898725271224976 -0.3851819634437561
2147000000 -0.7921169996261597 -0.38169434666633606
2148500000 -0.7935826182365417 -0.3779109716415405
2150000000 -0.7939460873603821 -0.37660467624664307
2151500000 -0.7951210141181946 -0.3726763129234314
2153000000 -0.7969110608100891 -0.3693324327468872
2154500000 -0.7978153824806213 -0.36375734210014343
2156000000 -0.7992604970932007 -0.3622942268848419
2157500000 -0.7990986704826355 -0.3600003123283386
2159000000 -0.8000550270080566 -0.3587333559989929
2160500000 -0.8017438054084778 -0.3536664843559265
2162000000 -0.8025444746017456 -0.3510798215866089
2163500000 -0.8032367825508118 -0.34657880663871765
2165000000 -0.8042507767677307 -0.3440539836883545
2166500000 -0.8059426546096802 -0.3395348787307739
2168000000 -0.8054860830307007 -0.3385758697986603
2169500000 -0.8063387870788574 -0.33576610684394836
2171000000 -0.80857914686203 -0.33026963472366333
2172500000 -0.809377908706665 -0.32849588990211487
2174000000 -0.8098919987678528 -0.3244767487049103
2175500000 -0.8106456995010376 -0.3224935829639435
2177000000 -0.811603844165802 -0.3177322447299957
2178500000 -0.8124932646751404 -0.31508252024650574
2180000000 -0.8132132291793823 -0.3127962052822113
2181500000 -0.8142150044441223 -0.3090376853942871
2183000000 -0.8153132796287537 -0.3055494427680969
2184500000 -0.8159756660461426 -0.30314794182777405
2186000000 -0.8171837329864502 -0.29915621876716614
2187500000 -0.8183180093765259 -0.29559963941574097
2189000000 -0.8191328644752502 -0.2922362983226776
2190500000 -0.8189699053764343 -0.2899281680583954
2192000000 -0.8198925256729126 -0.2871653139591217
2193500000 -0.8217662572860718 -0.2820424437522888
2195000000 -0.8217042088508606 -0.28078681230545044
2196500000 -0.8226279020309448 -0.2762482166290283
2198000000 -0.8236649632453918 -0.2733456790447235
2199500000 -0.8239244818687439 -0.2709781527519226
2201000000 -0.8236978650093079 -0.2686644196510315
2202500000 -0.8258575797080994 -0.26298660039901733
2204000000 -0.825750470161438 -0.2605092227458954
2205500000 -0.8261297941207886 -0.2582598626613617
2207000000 -0.8270527720451355 -0.25413039326667786
2208500000 -0.8282461762428284 -0.25189006328582764
2210000000 -0.8283388614654541 -0.24805547297000885
2211500000 -0.8289424180984497 -0.2445840835571289
2213000000 -0.8294119834899902 -0.24325942993164062
2214500000 -0.8302531242370605 -0.23885945975780487
2216000000 -0.8307891488075256 -0.23656900227069855
2217500000 -0.8313637971878052 -0.2325541377067566
2219000000 -0.8323031663894653 -0.2290169596672058
2220500000 -0.8314684629440308 -0.2282419353723526
2222000000 -0.8328186869621277 -0.22116044163703918
2223500000 -0.8333336114883423 -0.22005929052829742
2225000000 -0.8338325023651123 -0.21703852713108063
2226500000 -0.8340060114860535 -0.21427834033966064
2228000000 -0.8342325091362 -0.21070140600204468
2229500000 -0.8352749347686768 -0.20757579803466797
2231000000 -0.8352406620979309 -0.2042512148618698
2232500000 -0.8358969688415527 -0.20140381157398224
2234000000 -0.8359229564666748 -0.19893501698970795
2235500000 -0.8368543386459351 -0.19456598162651062
2237000000 -0.8370605707168579 -0.19056126475334167
2238500000 -0.837888240814209 -0.18756267428398132
2240000000 -0.837883472442627 -0.18517138063907623
2241500000 -0.8375236988067627 -0.18590117990970612
2243000000 -0.8388714790344238 -0.1774458885192871
2244500000 -0.8388713598251343 -0.1773117482662201
2246000000 -0.8399521708488464 -0.16930918395519257
2247500000 -0.8386330604553223 -0.17347173392772675
2249000000 -0.8399372696876526 -0.16588181257247925
2250500000 -0.8396337032318115 -0.1631646752357483
2252000000 -0.8392449021339417 -0.16018331050872803
2253500000 -0.8405690789222717 -0.15745943784713745
2255000000 -0.8403637409210205 -0.1540585309267044
2256500000 -0.8408163189888 -0.1500377506017685
2258000000 -0.8408183455467224 -0.14804811775684357
2259500000 -0.8415862917900085 -0.14399026334285736
2261000000 -0.841679573059082 -0.14104047417640686
2262500000 -0.8412222266197205 -0.13984240591526031
2264000000 -0.8417893052101135 -0.13427390158176422
2265500000 -0.8419836163520813 -0.1313379555940628
2267000000 -0.8419983386993408 -0.13001538813114166
2268500000 -0.8418752551078796 -0.12663696706295013
2270000000 -0.8420439958572388 -0.12230338156223297
2271500000 -0.8421359062194824 -0.11997480690479279
2273000000 -0.8423532843589783 -0.11655927449464798
2274500000 -0.8424427509307861 -0.11392197012901306
2276000000 -0.8427810072898865 -0.11051265895366669
2277500000 -0.8427278995513916 -0.10892058908939362
2279000000 -0.8423420190811157 -0.10537843406200409
2280500000 -0.8428044319152832 -0.10189568996429443
2282000000 -0.842941164970398 -0.09864901006221771
2283500000 -0.8422950506210327 -0.09666086733341217
2285000000 -0.8426272869110107 -0.09349916130304337
2286500000 -0.8428953886032104 -0.09112843871116638
2288000000 -0.8426462411880493 -0.08723745495080948
2289500000 -0.84197598695755 -0.085526242852211
2291000000 -0.8426019549369812 -0.07893132418394089
2292500000 -0.8423547148704529 -0.07693035155534744
2294000000 -0.8420015573501587 -0.07679883390665054
2295500000 -0.8423662185668945 -0.07224751263856888
2297000000 -0.8424339890480042 -0.06862146407365799
2298500000 -0.8420964479446411 -0.06639210879802704
2300000000 -0.8422440886497498 -0.06222967058420181
